EC-Lab ASCII FILE
Nb header lines : 65                          

Potentio Electrochemical Impedance Spectroscopy

Run on channel : 1 (SN 10336)
User : 
CE vs. WE compliance from -10 V to 10 V
Electrode connection : standard
Potential control : Ewe
Ewe ctrl range : min = -10,00 V, max = 10,00 V
Safety Limits :
	Do not start on E overload
Acquisition started on : 10/07/2024 14:26:36.787
Technique started on : 10/07/2024 14:31:37.866
Loaded Setting File :  C:\EC-lab data\Neethu\2024_10_01_Ni90Fe10_TiO2\OCP+EIS_1.mps
Saved on :
	File : OCP+EIS_1_02_PEIS_C01.mpr
	Directory : C:\EC-lab data\Neethu\2024_10_07_Ni90Fe10_TiO2\
	Host : 10.54.33.65
Device : VMP3 (SN 0498)
Address : USB
EC-Lab for windows v11.52 (software)
Internet server v11.52 (firmware)
Command interpretor v11.50 (firmware)
Electrode material : 
Initial state : 
Electrolyte : 
Comments : 
Electrode surface area : 0,001 cm²
Characteristic mass : 0,001 g
Volume (V) : 0,001 cm³
Thickness (t) : 0,000 cm
Diameter (d) : 0,000 cm
Cell constant (k=t/A) : 0,000 cm-1
Cycle Definition : Charge/Discharge alternance
Mode                Single sine         
E (V)               0,7000              
vs.                 Ref                 
tE (h:m:s)          0:00:0,0000         
record              0                   
dI                  0,000               
unit dI             mA                  
dt (s)              0,000               
fi                  200,000             
unit fi             kHz                 
ff                  0,100               
unit ff             Hz                  
Nd                  10                  
Points              per decade          
spacing             Logarithmic         
Va (mV)             10,0                
pw                  0,10                
Na                  2                   
corr                0                   
E range min (V)     -10,000             
E range max (V)     10,000              
I Range             Auto                
Bandwidth           5                   
nc cycles           0                   
goto Ns'            0                   
nr cycles           0                   
inc. cycle          0                   

freq/Hz	Re(Z)/Ohm	-Im(Z)/Ohm	|Z|/Ohm	Phase(Z)/deg	time/s	<Ewe>/V	<I>/mA	Cs/µF	Cp/µF	cycle number	I Range	|Ewe|/V	|I|/A	Ns	(Q-Qo)/mA.h	Re(Y)/Ohm-1	Im(Y)/Ohm-1	|Y|/Ohm-1	Phase(Y)/deg	Re(C)/nF	Im(C)/nF	|C|/nF	Phase(C)/deg	Re(M)	Im(M)	|M|	Phase(M)/deg	Re(Permittivity)	Im(Permittivity)	|Permittivity|	Phase(Permittivity)/deg	Re(Resistivity)/Ohm.cm	Im(Resistivity)/Ohm.cm	|Resistivity|/Ohm.cm	Phase(Resistivity)/deg	Re(Conductivity)/mS/cm	Im(Conductivity)/mS/cm	|Conductivity|/mS/cm	Phase(Conductivity)/deg	Tan(Delta)	Loss Angle(Delta)/deg	dq/mA.h	
1,9999814E+005	5,2184334E+000	-5,2384001E-001	5,2446599E+000	5,7322979E+000	10/07/2024 14:31:37.8659	6,9910830E-001	5,3204846E+000	-1,5191320E+000	-1,5155078E-002	1,000000000000000E+000	10	9,1273692E-003	1,7403167E-003	0	1,210314173149825E-003	1,8971667E-001	-1,9044258E-002	1,9067013E-001	-5,7322979E+000	-1,5155085E+001	1,5097314E+002	1,5173189E+002	-9,5732300E+001	0,0000000E+000	0,0000000E+000	0,0000000E+000	9,5732300E+001	0,0000000E+000	0,0000000E+000	0,0000000E+000	-9,5732300E+001	0,0000000E+000	0,0000000E+000	0,0000000E+000	5,7322979E+000	0,0000000E+000	0,0000000E+000	0,0000000E+000	-5,7322979E+000	9,9618835E+000	8,4267700E+001	1,210314173149825E-003
1,5885727E+005	5,0288372E+000	-3,0924585E-001	5,0383368E+000	3,5189443E+000	10/07/2024 14:31:38.2879	6,9911367E-001	5,1821036E+000	-3,2397325E+000	-1,2205134E-002	1,000000000000000E+000	10	1,0463907E-002	2,0768575E-003	0	1,810725001202224E-003	1,9810398E-001	-1,2182306E-002	1,9847819E-001	-3,5189443E+000	-1,2205132E+001	1,9847520E+002	1,9885013E+002	-9,3518944E+001	0,0000000E+000	0,0000000E+000	0,0000000E+000	9,3518944E+001	0,0000000E+000	0,0000000E+000	0,0000000E+000	-9,3518944E+001	0,0000000E+000	0,0000000E+000	0,0000000E+000	3,5189443E+000	0,0000000E+000	0,0000000E+000	0,0000000E+000	-3,5189443E+000	1,6261616E+001	8,6481056E+001	6,004108280523990E-004
1,2617837E+005	4,9479733E+000	-1,7514208E-001	4,9510722E+000	2,0272369E+000	10/07/2024 14:31:38.7099	6,9911683E-001	5,0871572E+000	-7,2018609E+000	-9,0121254E-003	1,000000000000000E+000	10	1,0662436E-002	2,1535610E-003	0	2,398802076727462E-003	2,0185004E-001	-7,1448316E-003	2,0197645E-001	-2,0272369E+000	-9,0121250E+000	2,5460332E+002	2,5476277E+002	-9,2027237E+001	0,0000000E+000	0,0000000E+000	0,0000000E+000	9,2027237E+001	0,0000000E+000	0,0000000E+000	0,0000000E+000	-9,2027237E+001	0,0000000E+000	0,0000000E+000	0,0000000E+000	2,0272369E+000	0,0000000E+000	0,0000000E+000	0,0000000E+000	-2,0272369E+000	2,8251196E+001	8,7972763E+001	5,880770755252386E-004
1,0022640E+005	4,9395757E+000	-9,3879849E-002	4,9404678E+000	1,0888124E+000	10/07/2024 14:31:39.1329	6,9913119E-001	5,0109763E+000	-1,6914751E+001	-6,1076512E-003	1,000000000000000E+000	10	1,0621852E-002	2,1499689E-003	0	2,977996440919013E-003	2,0237343E-001	-3,8462384E-003	2,0240998E-001	-1,0888124E+000	-6,1076589E+000	3,2135977E+002	3,2141782E+002	-9,1088814E+001	0,0000000E+000	0,0000000E+000	0,0000000E+000	9,1088814E+001	0,0000000E+000	0,0000000E+000	0,0000000E+000	-9,1088814E+001	0,0000000E+000	0,0000000E+000	0,0000000E+000	1,0888124E+000	0,0000000E+000	0,0000000E+000	0,0000000E+000	-1,0888124E+000	5,2615932E+001	8,8911186E+001	5,791943641915505E-004
7,9609563E+004	4,9391913E+000	-4,3650698E-002	4,9393840E+000	5,0634521E-001	10/07/2024 14:31:39.5549	6,9912469E-001	4,9444408E+000	-4,5799812E+001	-3,5768482E-003	1,000000000000000E+000	10	1,0536661E-002	2,1331934E-003	0	3,544396798924388E-003	2,0244649E-001	-1,7891454E-003	2,0245440E-001	-5,0634521E-001	-3,5768654E+000	4,0472974E+002	4,0474554E+002	-9,0506348E+001	0,0000000E+000	0,0000000E+000	0,0000000E+000	9,0506348E+001	0,0000000E+000	0,0000000E+000	0,0000000E+000	-9,0506348E+001	0,0000000E+000	0,0000000E+000	0,0000000E+000	5,0634521E-001	0,0000000E+000	0,0000000E+000	0,0000000E+000	-5,0634521E-001	1,1315263E+002	8,9493652E+001	5,664003580053748E-004
6,3233004E+004	4,9474354E+000	-1,1463580E-002	4,9474487E+000	1,3275839E-001	10/07/2024 14:31:39.9779	6,9911414E-001	4,8837152E+000	-2,1956143E+002	-1,1787832E-003	1,000000000000000E+000	10	1,0397155E-002	2,1015184E-003	0	4,104847129228318E-003	2,0212384E-001	-4,6833613E-004	2,0212437E-001	-1,3275839E-001	-1,1787895E+000	5,0873761E+002	5,0873898E+002	-9,0132759E+001	0,0000000E+000	0,0000000E+000	0,0000000E+000	9,0132759E+001	0,0000000E+000	0,0000000E+000	0,0000000E+000	-9,0132759E+001	0,0000000E+000	0,0000000E+000	0,0000000E+000	1,3275839E-001	0,0000000E+000	0,0000000E+000	0,0000000E+000	-1,3275839E-001	4,3157858E+002	8,9867241E+001	5,604503303039306E-004
5,0224539E+004	4,9596219E+000	1,2591369E-002	4,9596381E+000	-1,4546083E-001	10/07/2024 14:31:40.3999	6,9911540E-001	4,8323579E+000	2,5166985E+002	1,6220983E-003	1,000000000000000E+000	10	1,0372171E-002	2,0913160E-003	0	4,665540436225426E-003	2,0162696E-001	5,1188568E-004	2,0162761E-001	1,4546083E-001	1,6221117E+000	6,3892926E+002	6,3893134E+002	-8,9854538E+001	0,0000000E+000	0,0000000E+000	0,0000000E+000	8,9854538E+001	0,0000000E+000	0,0000000E+000	0,0000000E+000	-8,9854538E+001	0,0000000E+000	0,0000000E+000	0,0000000E+000	-1,4546083E-001	0,0000000E+000	0,0000000E+000	0,0000000E+000	1,4546083E-001	3,9389059E+002	8,9854538E+001	5,606933069971076E-004
3,9897566E+004	4,9803267E+000	3,3859003E-002	4,9804416E+000	-3,8952228E-001	10/07/2024 14:31:40.8219	6,9911784E-001	4,7798452E+000	1,1781472E+002	5,4451795E-003	1,000000000000000E+000	10	1,0324010E-002	2,0729105E-003	0	5,219464053868730E-003	2,0078078E-001	1,3650183E-003	2,0078541E-001	3,8952228E-001	5,4451299E+000	8,0093237E+002	8,0095087E+002	-8,9610481E+001	0,0000000E+000	0,0000000E+000	0,0000000E+000	8,9610481E+001	0,0000000E+000	0,0000000E+000	0,0000000E+000	-8,9610481E+001	0,0000000E+000	0,0000000E+000	0,0000000E+000	-3,8952228E-001	0,0000000E+000	0,0000000E+000	0,0000000E+000	3,8952228E-001	1,4709018E+002	8,9610481E+001	5,539236176433041E-004
3,1686090E+004	4,9956675E+000	5,3802557E-002	4,9959574E+000	-6,1704272E-001	10/07/2024 14:31:41.2439	6,9913417E-001	4,7316318E+000	9,3357361E+001	1,0827219E-002	1,000000000000000E+000	10	1,0243991E-002	2,0504561E-003	0	5,761902302228535E-003	2,0015022E-001	2,1555866E-003	2,0016183E-001	6,1704272E-001	1,0827217E+001	1,0053275E+003	1,0053858E+003	-8,9382957E+001	0,0000000E+000	0,0000000E+000	0,0000000E+000	8,9382957E+001	0,0000000E+000	0,0000000E+000	0,0000000E+000	-8,9382957E+001	0,0000000E+000	0,0000000E+000	0,0000000E+000	-6,1704272E-001	0,0000000E+000	0,0000000E+000	0,0000000E+000	6,1704272E-001	9,2851860E+001	8,9382957E+001	5,424382483598051E-004
2,5172580E+004	5,0283270E+000	8,1635438E-002	5,0289898E+000	-9,3012148E-001	10/07/2024 14:31:41.6659	6,9912213E-001	4,6865716E+000	7,7448616E+001	2,0408431E-002	1,000000000000000E+000	10	1,0195732E-002	2,0273917E-003	0	6,301749803834853E-003	1,9882090E-001	3,2278788E-003	1,9884710E-001	9,3012148E-001	2,0408451E+001	1,2570554E+003	1,2572211E+003	-8,9069878E+001	0,0000000E+000	0,0000000E+000	0,0000000E+000	8,9069878E+001	0,0000000E+000	0,0000000E+000	0,0000000E+000	-8,9069878E+001	0,0000000E+000	0,0000000E+000	0,0000000E+000	-9,3012148E-001	0,0000000E+000	0,0000000E+000	0,0000000E+000	9,3012148E-001	6,1594906E+001	8,9069878E+001	5,398475016063185E-004
1,9995176E+004	5,0482631E+000	1,1650024E-001	5,0496073E+000	-1,3219968E+000	10/07/2024 14:31:42.0879	6,9912291E-001	4,6455188E+000	6,8323174E+001	3,6366921E-002	1,000000000000000E+000	10	1,0196278E-002	2,0192219E-003	0	6,835898068873160E-003	1,9798249E-001	4,5688995E-003	1,9803520E-001	1,3219968E+000	3,6366970E+001	1,5758748E+003	1,5762943E+003	-8,8678001E+001	0,0000000E+000	0,0000000E+000	0,0000000E+000	8,8678001E+001	0,0000000E+000	0,0000000E+000	0,0000000E+000	-8,8678001E+001	0,0000000E+000	0,0000000E+000	0,0000000E+000	-1,3219968E+000	0,0000000E+000	0,0000000E+000	0,0000000E+000	1,3219968E+000	4,3332638E+001	8,8678001E+001	5,341482650383063E-004
1,5875519E+004	5,0684290E+000	1,4010581E-001	5,0703650E+000	-1,5834154E+000	10/07/2024 14:31:42.5099	6,9911730E-001	4,6062942E+000	7,1554344E+001	5,4634869E-002	1,000000000000000E+000	10	1,0171919E-002	2,0061512E-003	0	7,366935070581993E-003	1,9714916E-001	5,4497644E-003	1,9722447E-001	1,5834154E+000	5,4634766E+001	1,9764561E+003	1,9772111E+003	-8,8416588E+001	0,0000000E+000	0,0000000E+000	0,0000000E+000	8,8416588E+001	0,0000000E+000	0,0000000E+000	0,0000000E+000	-8,8416588E+001	0,0000000E+000	0,0000000E+000	0,0000000E+000	-1,5834154E+000	0,0000000E+000	0,0000000E+000	0,0000000E+000	1,5834154E+000	3,6175724E+001	8,8416588E+001	5,310370017088334E-004
1,2609485E+004	5,1033621E+000	1,7405786E-001	5,1063294E+000	-1,9534017E+000	10/07/2024 14:31:42.9319	6,9912291E-001	4,5700240E+000	7,2515213E+001	8,4255591E-002	1,000000000000000E+000	10	1,0087509E-002	1,9754912E-003	0	7,891035064517262E-003	1,9572158E-001	6,6753794E-003	1,9583538E-001	1,9534017E+000	8,4255501E+001	2,4703669E+003	2,4718035E+003	-8,8046600E+001	0,0000000E+000	0,0000000E+000	0,0000000E+000	8,8046600E+001	0,0000000E+000	0,0000000E+000	0,0000000E+000	-8,8046600E+001	0,0000000E+000	0,0000000E+000	0,0000000E+000	-1,9534017E+000	0,0000000E+000	0,0000000E+000	0,0000000E+000	1,9534017E+000	2,9319918E+001	8,8046600E+001	5,240999939352693E-004
1,0020785E+004	5,1320424E+000	2,1879661E-001	5,1367044E+000	-2,4412377E+000	10/07/2024 14:31:43.2189	6,9912618E-001	4,5453396E+000	7,2590164E+001	1,3170123E-001	1,000000000000000E+000	10	1,0692828E-002	2,0816515E-003	0	8,244431862743727E-003	1,9450067E-001	8,2922326E-003	1,9467735E-001	2,4412377E+000	1,3170126E+002	3,0891533E+003	3,0919595E+003	-8,7558762E+001	0,0000000E+000	0,0000000E+000	0,0000000E+000	8,7558762E+001	0,0000000E+000	0,0000000E+000	0,0000000E+000	-8,7558762E+001	0,0000000E+000	0,0000000E+000	0,0000000E+000	-2,4412377E+000	0,0000000E+000	0,0000000E+000	0,0000000E+000	2,4412377E+000	2,3455767E+001	8,7558762E+001	3,533967982264647E-004
7,9597607E+003	5,1616879E+000	2,6937297E-001	5,1687121E+000	-2,9873843E+000	10/07/2024 14:31:43.7001	6,9915247E-001	4,5057940E+000	7,4227715E+001	2,0160878E-001	1,000000000000000E+000	10	1,0060291E-002	1,9463825E-003	0	8,833622174093655E-003	1,9320887E-001	1,0082990E-002	1,9347179E-001	2,9873843E+000	2,0160855E+002	3,8632000E+003	3,8684570E+003	-8,7012619E+001	0,0000000E+000	0,0000000E+000	0,0000000E+000	8,7012619E+001	0,0000000E+000	0,0000000E+000	0,0000000E+000	-8,7012619E+001	0,0000000E+000	0,0000000E+000	0,0000000E+000	-2,9873843E+000	0,0000000E+000	0,0000000E+000	0,0000000E+000	2,9873843E+000	1,9161863E+001	8,7012619E+001	5,891903113499283E-004
6,3238188E+003	5,2036681E+000	3,3521169E-001	5,2144537E+000	-3,6858065E+000	10/07/2024 14:31:44.0927	6,9918048E-001	4,4746752E+000	7,5079529E+001	3,1027174E-001	1,000000000000000E+000	10	1,0334614E-002	1,9819168E-003	0	9,308763185400153E-003	1,9137797E-001	1,2328251E-002	1,9177464E-001	3,6858065E+000	3,1027173E+002	4,8165122E+003	4,8264956E+003	-8,6314194E+001	0,0000000E+000	0,0000000E+000	0,0000000E+000	8,6314194E+001	0,0000000E+000	0,0000000E+000	0,0000000E+000	-8,6314194E+001	0,0000000E+000	0,0000000E+000	0,0000000E+000	-3,6858065E+000	0,0000000E+000	0,0000000E+000	0,0000000E+000	3,6858065E+000	1,5523528E+001	8,6314194E+001	4,751410113064975E-004
5,0216069E+003	5,2463188E+000	4,0338129E-001	5,2618036E+000	-4,3967328E+000	10/07/2024 14:31:44.5591	6,9919604E-001	4,4435329E+000	7,8570885E+001	4,6176806E-001	1,000000000000000E+000	10	1,0497577E-002	1,9950531E-003	0	9,872244762121778E-003	1,8948962E-001	1,4569562E-002	1,9004890E-001	4,3967328E+000	4,6176840E+002	6,0056885E+003	6,0234146E+003	-8,5603264E+001	0,0000000E+000	0,0000000E+000	0,0000000E+000	8,5603264E+001	0,0000000E+000	0,0000000E+000	0,0000000E+000	-8,5603264E+001	0,0000000E+000	0,0000000E+000	0,0000000E+000	-4,3967328E+000	0,0000000E+000	0,0000000E+000	0,0000000E+000	4,3967328E+000	1,3005856E+001	8,5603264E+001	5,634815767216247E-004
3,9861731E+003	5,3071699E+000	4,8950499E-001	5,3296967E+000	-5,2697468E+000	10/07/2024 14:31:45.0253	6,9918370E-001	4,4072156E+000	8,1565575E+001	6,8804389E-001	1,000000000000000E+000	10	1,0610306E-002	1,9907898E-003	0	1,043457394890816E-002	1,8683490E-001	1,7232653E-002	1,8762794E-001	5,2697468E+000	6,8804358E+002	7,4597104E+003	7,4913740E+003	-8,4730255E+001	0,0000000E+000	0,0000000E+000	0,0000000E+000	8,4730255E+001	0,0000000E+000	0,0000000E+000	0,0000000E+000	-8,4730255E+001	0,0000000E+000	0,0000000E+000	0,0000000E+000	-5,2697468E+000	0,0000000E+000	0,0000000E+000	0,0000000E+000	5,2697468E+000	1,0841911E+001	8,4730255E+001	5,623291867863801E-004
3,1669595E+003	5,3609104E+000	5,9901273E-001	5,3942728E+000	-6,3756194E+000	10/07/2024 14:31:45.4903	6,9918507E-001	4,3733668E+000	8,3896065E+001	1,0345414E+000	1,000000000000000E+000	10	1,0672073E-002	1,9784081E-003	0	1,099383279705860E-002	1,8423526E-001	2,0585917E-002	1,8538180E-001	6,3756194E+000	1,0345411E+003	9,2587080E+003	9,3163271E+003	-8,3624382E+001	0,0000000E+000	0,0000000E+000	0,0000000E+000	8,3624382E+001	0,0000000E+000	0,0000000E+000	0,0000000E+000	-8,3624382E+001	0,0000000E+000	0,0000000E+000	0,0000000E+000	-6,3756194E+000	0,0000000E+000	0,0000000E+000	0,0000000E+000	6,3756194E+000	8,9495764E+000	8,3624382E+001	5,592588481504422E-004
2,5158047E+003	5,4324255E+000	7,2580808E-001	5,4806976E+000	-7,6100278E+000	10/07/2024 14:31:45.9541	6,9918078E-001	4,3420515E+000	8,7160843E+001	1,5285982E+000	1,000000000000000E+000	10	1,0708814E-002	1,9539145E-003	0	1,154486378481343E-002	1,8085149E-001	2,4162957E-002	1,8245852E-001	7,6100278E+000	1,5285988E+003	1,1441035E+004	1,1542699E+004	-8,2389969E+001	0,0000000E+000	0,0000000E+000	0,0000000E+000	8,2389969E+001	0,0000000E+000	0,0000000E+000	0,0000000E+000	-8,2389969E+001	0,0000000E+000	0,0000000E+000	0,0000000E+000	-7,6100278E+000	0,0000000E+000	0,0000000E+000	0,0000000E+000	7,6100278E+000	7,4846582E+000	8,2389969E+001	5,510309877548251E-004
1,9980818E+003	5,5248089E+000	8,7389129E-001	5,5934963E+000	-8,9883404E+000	10/07/2024 14:31:46.4203	6,9918281E-001	4,3105516E+000	9,1148483E+001	2,2248337E+000	1,000000000000000E+000	10	1,0734777E-002	1,9191534E-003	0	1,209599669511663E-002	1,7658368E-001	2,7931271E-002	1,7877905E-001	8,9883404E+000	2,2248342E+003	1,4065573E+004	1,4240443E+004	-8,1011658E+001	0,0000000E+000	0,0000000E+000	0,0000000E+000	8,1011658E+001	0,0000000E+000	0,0000000E+000	0,0000000E+000	-8,1011658E+001	0,0000000E+000	0,0000000E+000	0,0000000E+000	-8,9883404E+000	0,0000000E+000	0,0000000E+000	0,0000000E+000	8,9883404E+000	6,3220778E+000	8,1011658E+001	5,511329103032037E-004
1,5875399E+003	5,6239552E+000	1,0448102E+000	5,7201838E+000	-1,0524343E+001	10/07/2024 14:31:46.8838	6,9917214E-001	4,2779231E+000	9,5952888E+001	3,2012007E+000	1,000000000000000E+000	10	1,0727366E-002	1,8753533E-003	0	1,263962902379796E-002	1,7187864E-001	3,1931359E-002	1,7481956E-001	1,0524343E+001	3,2012017E+003	1,7231273E+004	1,7526109E+004	-7,9475655E+001	0,0000000E+000	0,0000000E+000	0,0000000E+000	7,9475655E+001	0,0000000E+000	0,0000000E+000	0,0000000E+000	-7,9475655E+001	0,0000000E+000	0,0000000E+000	0,0000000E+000	-1,0524343E+001	0,0000000E+000	0,0000000E+000	0,0000000E+000	1,0524343E+001	5,3827534E+000	7,9475655E+001	5,436323286813361E-004
1,2604036E+003	5,7568908E+000	1,2584431E+000	5,8928323E+000	-1,2330759E+001	10/07/2024 14:31:47.3491	6,9918257E-001	4,2534461E+000	1,0034065E+002	4,5761046E+000	1,000000000000000E+000	10	1,0739383E-002	1,8224485E-003	0	1,318163993427561E-002	1,6578294E-001	3,6239769E-002	1,6969769E-001	1,2330759E+001	4,5761035E+003	2,0933910E+004	2,1428236E+004	-7,7669243E+001	0,0000000E+000	0,0000000E+000	0,0000000E+000	7,7669243E+001	0,0000000E+000	0,0000000E+000	0,0000000E+000	-7,7669243E+001	0,0000000E+000	0,0000000E+000	0,0000000E+000	-1,2330759E+001	0,0000000E+000	0,0000000E+000	0,0000000E+000	1,2330759E+001	4,5746136E+000	7,7669243E+001	5,420109104776454E-004
1,0016024E+003	5,9160008E+000	1,5046580E+000	6,1043477E+000	-1,4269878E+001	10/07/2024 14:31:47.8138	6,9917876E-001	4,2208023E+000	1,0560561E+002	6,4162908E+000	1,000000000000000E+000	10	1,0728045E-002	1,7574434E-003	0	1,371920404726319E-002	1,5876316E-001	4,0379345E-002	1,6381767E-001	1,4269878E+001	6,4162920E+003	2,5227514E+004	2,6030680E+004	-7,5730118E+001	0,0000000E+000	0,0000000E+000	0,0000000E+000	7,5730118E+001	0,0000000E+000	0,0000000E+000	0,0000000E+000	-7,5730118E+001	0,0000000E+000	0,0000000E+000	0,0000000E+000	-1,4269878E+001	0,0000000E+000	0,0000000E+000	0,0000000E+000	1,4269878E+001	3,9317911E+000	7,5730118E+001	5,375641129875749E-004
7,9525409E+002	6,1385012E+000	1,7809885E+000	6,3916445E+000	-1,6179245E+001	10/07/2024 14:31:48.2791	6,9918132E-001	4,1946030E+000	1,1237070E+002	8,7246914E+000	1,000000000000000E+000	10	1,0722646E-002	1,6776036E-003	0	1,425141818038234E-002	1,5025784E-001	4,3594923E-002	1,5645427E-001	1,6179245E+001	8,7246924E+003	3,0071242E+004	3,1311338E+004	-7,3820755E+001	0,0000000E+000	0,0000000E+000	0,0000000E+000	7,3820755E+001	0,0000000E+000	0,0000000E+000	0,0000000E+000	-7,3820755E+001	0,0000000E+000	0,0000000E+000	0,0000000E+000	-1,6179245E+001	0,0000000E+000	0,0000000E+000	0,0000000E+000	1,6179245E+001	3,4466822E+000	7,3820755E+001	5,322141331191594E-004
6,3181964E+002	6,4050679E+000	2,0984681E+000	6,7400641E+000	-1,8140150E+001	10/07/2024 14:31:48.7436	6,9917870E-001	4,1717024E+000	1,2003963E+002	1,1635936E+001	1,000000000000000E+000	10	1,0707235E-002	1,5885954E-003	0	1,478256662380012E-002	1,4099240E-001	4,6192799E-002	1,4836654E-001	1,8140150E+001	1,1635937E+004	3,5515891E+004	3,7373434E+004	-7,1859848E+001	0,0000000E+000	0,0000000E+000	0,0000000E+000	7,1859848E+001	0,0000000E+000	0,0000000E+000	0,0000000E+000	-7,1859848E+001	0,0000000E+000	0,0000000E+000	0,0000000E+000	-1,8140150E+001	0,0000000E+000	0,0000000E+000	0,0000000E+000	1,8140150E+001	3,0522590E+000	7,1859848E+001	5,311484434177786E-004
