EC-Lab ASCII FILE
Nb header lines : 66                          

Potentio Electrochemical Impedance Spectroscopy

Run on channel : 1 (SN 10336)
User : 
CE vs. WE compliance from -10 V to 10 V
Electrode connection : standard
Potential control : Ewe
Ewe ctrl range : min = -10,00 V, max = 10,00 V
Safety Limits :
	Do not start on E overload
Acquisition started on : 10/01/2024 19:01:56.866
Technique started on : 10/01/2024 19:06:58.033
Loaded Setting File :  C:\EC-lab data\Neethu\2024_10_01_Ni90Fe10_TiO2\OCP+EIS_1.mps
Saved on :
	File : OCP+EIS_1_02_PEIS_C01.mpr
	Directory : C:\EC-lab data\Neethu\2024_10_01_Ni90Fe10_ZrO2\
	Host : 10.54.33.65
Device : VMP3 (SN 0498)
Address : USB
EC-Lab for windows v11.52 (software)
Internet server v11.52 (firmware)
Command interpretor v11.50 (firmware)
Electrode material : 
Initial state : 
Electrolyte : 
Comments : 
Electrode surface area : 0,001 cm²
Characteristic mass : 0,001 g
Volume (V) : 0,001 cm³
Thickness (t) : 0,000 cm
Diameter (d) : 0,000 cm
Cell constant (k=t/A) : 0,000 cm-1
Record Ece
Cycle Definition : Charge/Discharge alternance
Mode                Single sine         
E (V)               0,7000              
vs.                 Ref                 
tE (h:m:s)          0:00:0,0000         
record              0                   
dI                  0,000               
unit dI             mA                  
dt (s)              0,000               
fi                  200,000             
unit fi             kHz                 
ff                  0,100               
unit ff             Hz                  
Nd                  10                  
Points              per decade          
spacing             Logarithmic         
Va (mV)             10,0                
pw                  0,10                
Na                  2                   
corr                0                   
E range min (V)     -10,000             
E range max (V)     10,000              
I Range             Auto                
Bandwidth           5                   
nc cycles           0                   
goto Ns'            0                   
nr cycles           0                   
inc. cycle          0                   

freq/Hz	Re(Z)/Ohm	-Im(Z)/Ohm	|Z|/Ohm	Phase(Z)/deg	time/s	<Ewe>/V	<I>/mA	Cs/µF	Cp/µF	cycle number	I Range	|Ewe|/V	|I|/A	Ns	(Q-Qo)/mA.h	<Ece>/V	|Ece|/V	Phase(Zce)/deg	|Zce|/Ohm	Re(Zce)/Ohm	-Im(Zce)/Ohm	Phase(Zwe-ce)/deg	|Zwe-ce|/Ohm	Re(Zwe-ce)/Ohm	-Im(Zwe-ce)/Ohm	Re(Y)/Ohm-1	Im(Y)/Ohm-1	|Y|/Ohm-1	Phase(Y)/deg	Re(C)/nF	Im(C)/nF	|C|/nF	Phase(C)/deg	Re(M)	Im(M)	|M|	Phase(M)/deg	Re(Permittivity)	Im(Permittivity)	|Permittivity|	Phase(Permittivity)/deg	Re(Resistivity)/Ohm.cm	Im(Resistivity)/Ohm.cm	|Resistivity|/Ohm.cm	Phase(Resistivity)/deg	Re(Conductivity)/mS/cm	Im(Conductivity)/mS/cm	|Conductivity|/mS/cm	Phase(Conductivity)/deg	Tan(Delta)	Loss Angle(Delta)/deg	dq/mA.h	
1,9999814E+005	5,8924499E+000	-7,6283330E-001	5,9416227E+000	7,3764534E+000	10/01/2024 19:06:58.0329	6,9907814E-001	1,9197551E+000	-1,0431926E+000	-1,7195456E-002	1,000000000000000E+000	10	9,4849039E-003	1,5963491E-003	0	4,704307599941644E-004	-1,4306761E-001	6,3405733E-004	-1,1264807E+002	3,9719215E-001	-1,5294668E-001	3,6656365E-001	3,9495759E+000	5,7531667E+000	5,7395034E+000	-3,9626965E-001	1,6691130E-001	-2,1608246E-002	1,6830419E-001	-7,3764534E+000	-1,7195448E+001	1,3282504E+002	1,3393347E+002	-9,7376450E+001	0,0000000E+000	0,0000000E+000	0,0000000E+000	9,7376450E+001	0,0000000E+000	0,0000000E+000	0,0000000E+000	-9,7376450E+001	0,0000000E+000	0,0000000E+000	0,0000000E+000	7,3764534E+000	0,0000000E+000	0,0000000E+000	0,0000000E+000	-7,3764534E+000	7,7244267E+000	8,2623550E+001	4,704307599941644E-004
1,5885727E+005	5,4618106E+000	-4,0242437E-001	5,4766159E+000	4,2139192E+000	10/01/2024 19:06:58.4129	6,9908857E-001	1,8885293E+000	-2,4895954E+000	-1,3442274E-002	1,000000000000000E+000	10	1,0457470E-002	1,9094766E-003	0	6,654491298351333E-004	-1,5918115E-001	5,8307830E-004	-2,0200268E+001	3,0536029E-001	2,8657800E-001	1,0544170E-001	2,9574790E+000	5,7560554E+000	5,7483888E+000	-2,9698268E-001	1,8210089E-001	-1,3417131E-002	1,8259451E-001	-4,2139192E+000	-1,3442279E+001	1,8244214E+002	1,8293668E+002	-9,4213921E+001	0,0000000E+000	0,0000000E+000	0,0000000E+000	9,4213921E+001	0,0000000E+000	0,0000000E+000	0,0000000E+000	-9,4213921E+001	0,0000000E+000	0,0000000E+000	0,0000000E+000	4,2139192E+000	0,0000000E+000	0,0000000E+000	0,0000000E+000	-4,2139192E+000	1,3572267E+001	8,5786079E+001	1,950183698409690E-004
1,2617837E+005	5,2823081E+000	-1,7421789E-001	5,2851801E+000	1,8890101E+000	10/01/2024 19:06:58.7930	6,9909954E-001	1,8638376E+000	-7,2400651E+000	-7,8669870E-003	1,000000000000000E+000	10	1,0656018E-002	2,0162072E-003	0	8,581586076247235E-004	-1,7441647E-001	9,5275661E-004	5,4157901E+000	4,7254896E-001	4,7043949E-001	-4,4600435E-002	2,1783202E+000	5,7569075E+000	5,7527475E+000	-2,1881834E-001	1,8910550E-001	-6,2369630E-003	1,8920831E-001	-1,8890101E+000	-7,8669758E+000	2,3852798E+002	2,3865768E+002	-9,1889008E+001	0,0000000E+000	0,0000000E+000	0,0000000E+000	9,1889008E+001	0,0000000E+000	0,0000000E+000	0,0000000E+000	-9,1889008E+001	0,0000000E+000	0,0000000E+000	0,0000000E+000	1,8890101E+000	0,0000000E+000	0,0000000E+000	0,0000000E+000	-1,8890101E+000	3,0320124E+001	8,8110992E+001	1,927094777895901E-004
1,0022640E+005	5,2078676E+000	-5,7806883E-002	5,2081885E+000	6,3595206E-001	10/01/2024 19:06:59.1730	6,9910508E-001	1,8427619E+000	-2,7469984E+001	-3,3841075E-003	1,000000000000000E+000	10	1,0590615E-002	2,0334546E-003	0	1,047890635006233E-003	-1,8793350E-001	1,1082886E-003	1,0956597E+001	5,4502749E-001	5,3509241E-001	-1,0359084E-001	1,6097927E+000	5,7452273E+000	5,7429600E+000	-1,6139773E-001	1,9199350E-001	-2,1311112E-003	1,9200534E-001	-6,3595206E-001	-3,3841276E+000	3,0487695E+002	3,0489572E+002	-9,0635956E+001	0,0000000E+000	0,0000000E+000	0,0000000E+000	9,0635956E+001	0,0000000E+000	0,0000000E+000	0,0000000E+000	-9,0635956E+001	0,0000000E+000	0,0000000E+000	0,0000000E+000	6,3595206E-001	0,0000000E+000	0,0000000E+000	0,0000000E+000	-6,3595206E-001	9,0090790E+001	8,9364044E+001	1,897320273815098E-004
7,9609563E+004	5,1790700E+000	1,1140861E-003	5,1790700E+000	-1,2325076E-002	10/01/2024 19:06:59.5529	6,9911045E-001	1,8229883E+000	1,7944697E+003	8,3036706E-005	1,000000000000000E+000	10	1,0517876E-002	2,0308425E-003	0	1,238617456133869E-003	-1,9969410E-001	1,1742822E-003	1,0540083E+001	5,7822412E-001	5,6846786E-001	-1,0577069E-001	1,0431805E+000	5,7484903E+000	5,7475376E+000	-1,0465661E-001	1,9308487E-001	4,1535095E-005	1,9308487E-001	1,2325076E-002	8,3012417E-002	3,8601404E+002	3,8601404E+002	-8,9987679E+001	0,0000000E+000	0,0000000E+000	0,0000000E+000	8,9987679E+001	0,0000000E+000	0,0000000E+000	0,0000000E+000	-8,9987679E+001	0,0000000E+000	0,0000000E+000	0,0000000E+000	-1,2325076E-002	0,0000000E+000	0,0000000E+000	0,0000000E+000	1,2325076E-002	4,6487158E+003	8,9987679E+001	1,907268211276355E-004
6,3233004E+004	5,1642036E+000	4,4492319E-002	5,1643953E+000	-4,9362093E-001	10/01/2024 19:06:59.9329	6,9910520E-001	1,8053380E+000	5,6570663E+001	4,1987728E-003	1,000000000000000E+000	10	1,0412299E-002	2,0161700E-003	0	1,426987476249575E-003	-2,1137832E-001	1,1977035E-003	1,0085825E+001	5,9404892E-001	5,8486879E-001	-1,0403173E-001	5,9335393E-001	5,7493811E+000	5,7490726E+000	-5,9539407E-002	1,9362633E-001	1,6681922E-003	1,9363351E-001	4,9362093E-001	4,1987805E+000	4,8734970E+002	4,8736780E+002	-8,9506378E+001	0,0000000E+000	0,0000000E+000	0,0000000E+000	8,9506378E+001	0,0000000E+000	0,0000000E+000	0,0000000E+000	-8,9506378E+001	0,0000000E+000	0,0000000E+000	0,0000000E+000	-4,9362093E-001	0,0000000E+000	0,0000000E+000	0,0000000E+000	4,9362093E-001	1,1606956E+002	8,9506378E+001	1,883700201157060E-004
5,0224539E+004	5,1634436E+000	7,1145475E-002	5,1639338E+000	-7,8941065E-001	10/01/2024 19:07:00.3129	6,9910747E-001	1,7899491E+000	4,4540684E+001	8,4545426E-003	1,000000000000000E+000	10	1,0320290E-002	1,9985326E-003	0	1,611354051946863E-003	-2,2308165E-001	1,2030064E-003	7,9323716E+000	6,0194486E-001	5,9618527E-001	-8,3070889E-002	1,1863177E-001	5,7596412E+000	5,7596288E+000	-1,1925414E-002	1,9363244E-001	2,6680008E-003	1,9365081E-001	7,8941065E-001	8,4545727E+000	6,1359570E+002	6,1365393E+002	-8,9210587E+001	0,0000000E+000	0,0000000E+000	0,0000000E+000	8,9210587E+001	0,0000000E+000	0,0000000E+000	0,0000000E+000	-8,9210587E+001	0,0000000E+000	0,0000000E+000	0,0000000E+000	-7,8941065E-001	0,0000000E+000	0,0000000E+000	0,0000000E+000	7,8941065E-001	7,2575851E+001	8,9210587E+001	1,843665756972881E-004
3,9897566E+004	5,1738462E+000	8,7371074E-002	5,1745839E+000	-9,6746558E-001	10/01/2024 19:07:00.6929	6,9910437E-001	1,7747840E+000	4,5656860E+001	1,3016390E-002	1,000000000000000E+000	10	1,0293058E-002	1,9891567E-003	0	1,799840014597618E-003	-2,3453677E-001	1,2155556E-003	7,0860243E+000	6,1109090E-001	6,0642344E-001	-7,5383820E-002	-1,1882111E-001	5,7802820E+000	5,7802696E+000	1,1987254E-002	1,9322470E-001	3,2629981E-003	1,9325225E-001	9,6746558E-001	1,3016426E+001	7,7079053E+002	7,7090045E+002	-8,9032532E+001	0,0000000E+000	0,0000000E+000	0,0000000E+000	8,9032532E+001	0,0000000E+000	0,0000000E+000	0,0000000E+000	-8,9032532E+001	0,0000000E+000	0,0000000E+000	0,0000000E+000	-9,6746558E-001	0,0000000E+000	0,0000000E+000	0,0000000E+000	9,6746558E-001	5,9216923E+001	8,9032532E+001	1,884859626507549E-004
3,1686090E+004	5,1773496E+000	1,1185938E-001	5,1785579E+000	-1,2377131E+000	10/01/2024 19:07:01.0729	6,9910610E-001	1,7628804E+000	4,4903381E+001	2,0951070E-002	1,000000000000000E+000	10	1,0254672E-002	1,9802176E-003	0	1,984673884933148E-003	-2,4452181E-001	1,1995974E-003	5,4777265E+000	6,0579067E-001	6,0302424E-001	-5,7828043E-002	-5,3554970E-001	5,7806263E+000	5,7803736E+000	5,4031339E-002	1,9305889E-001	4,1711396E-003	1,9310395E-001	1,2377131E+000	2,0951132E+001	9,6970874E+002	9,6993506E+002	-8,8762283E+001	0,0000000E+000	0,0000000E+000	0,0000000E+000	8,8762283E+001	0,0000000E+000	0,0000000E+000	0,0000000E+000	-8,8762283E+001	0,0000000E+000	0,0000000E+000	0,0000000E+000	-1,2377131E+000	0,0000000E+000	0,0000000E+000	0,0000000E+000	1,2377131E+000	4,6284447E+001	8,8762283E+001	1,848338703355306E-004
2,5172580E+004	5,1860371E+000	1,2980787E-001	5,1876612E+000	-1,4338292E+000	10/01/2024 19:07:01.4529	6,9910181E-001	1,7505438E+000	4,8707001E+001	3,0496517E-002	1,000000000000000E+000	10	1,0209608E-002	1,9680560E-003	0	2,161737357126038E-003	-2,5549966E-001	1,2057757E-003	3,7864182E+000	6,1267346E-001	6,1133611E-001	-4,0459346E-002	-8,8296682E-001	5,7980618E+000	5,7973733E+000	8,9348525E-002	1,9270475E-001	4,8234509E-003	1,9276510E-001	1,4338292E+000	3,0496538E+001	1,2183856E+003	1,2187672E+003	-8,8566170E+001	0,0000000E+000	0,0000000E+000	0,0000000E+000	8,8566170E+001	0,0000000E+000	0,0000000E+000	0,0000000E+000	-8,8566170E+001	0,0000000E+000	0,0000000E+000	0,0000000E+000	-1,4338292E+000	0,0000000E+000	0,0000000E+000	0,0000000E+000	1,4338292E+000	3,9951637E+001	8,8566170E+001	1,770634721928897E-004
1,9995176E+004	5,1922393E+000	1,5805602E-001	5,1946445E+000	-1,7435921E+000	10/01/2024 19:07:01.8329	6,9910532E-001	1,7395358E+000	5,0359783E+001	4,6622362E-002	1,000000000000000E+000	10	1,0177859E-002	1,9592985E-003	0	2,341792736830746E-003	-2,6726025E-001	1,2015933E-003	3,0518451E+000	6,1327732E-001	6,1240757E-001	-3,2650616E-002	-1,2376434E+000	5,8060017E+000	5,8046470E+000	1,2540540E-001	1,9241683E-001	5,8573261E-003	1,9250596E-001	1,7435921E+000	4,6622345E+001	1,5315739E+003	1,5322833E+003	-8,8256409E+001	0,0000000E+000	0,0000000E+000	0,0000000E+000	8,8256409E+001	0,0000000E+000	0,0000000E+000	0,0000000E+000	-8,8256409E+001	0,0000000E+000	0,0000000E+000	0,0000000E+000	-1,7435921E+000	0,0000000E+000	0,0000000E+000	0,0000000E+000	1,7435921E+000	3,2850628E+001	8,8256409E+001	1,800553797047079E-004
1,5875519E+004	5,2104044E+000	1,9451503E-001	5,2140341E+000	-2,1379755E+000	10/01/2024 19:07:02.2129	6,9911391E-001	1,7284418E+000	5,1539360E+001	7,1729474E-002	1,000000000000000E+000	10	1,0086472E-002	1,9344853E-003	0	2,520480940274558E-003	-2,7661526E-001	1,1825298E-003	2,4982851E+000	6,1128914E-001	6,1070812E-001	-2,6645780E-002	-1,6518379E+000	5,8235326E+000	5,8211126E+000	1,6786925E-001	1,9165656E-001	7,1549304E-003	1,9179007E-001	2,1379755E+000	7,1729546E+001	1,9213917E+003	1,9227302E+003	-8,7862022E+001	0,0000000E+000	0,0000000E+000	0,0000000E+000	8,7862022E+001	0,0000000E+000	0,0000000E+000	0,0000000E+000	-8,7862022E+001	0,0000000E+000	0,0000000E+000	0,0000000E+000	-2,1379755E+000	0,0000000E+000	0,0000000E+000	0,0000000E+000	2,1379755E+000	2,6786640E+001	8,7862022E+001	1,786882034438119E-004
1,2609485E+004	5,2274170E+000	2,4570100E-001	5,2331882E+000	-2,6910570E+000	10/01/2024 19:07:02.4699	6,9910300E-001	1,7199526E+000	5,1370743E+001	1,1323925E-001	1,000000000000000E+000	10	1,0894097E-002	2,0817325E-003	0	2,640678248748196E-003	-2,8341198E-001	1,2473484E-003	3,0097501E+000	5,9918761E-001	5,9836107E-001	-3,1460881E-002	-2,1060750E+000	5,8297157E+000	5,8257780E+000	2,1424012E-001	1,9087738E-001	8,9716893E-003	1,9108811E-001	2,6910570E+000	1,1323918E+002	2,4092244E+003	2,4118840E+003	-8,7308945E+001	0,0000000E+000	0,0000000E+000	0,0000000E+000	8,7308945E+001	0,0000000E+000	0,0000000E+000	0,0000000E+000	-8,7308945E+001	0,0000000E+000	0,0000000E+000	0,0000000E+000	-2,6910570E+000	0,0000000E+000	0,0000000E+000	0,0000000E+000	2,6910570E+000	2,1275522E+001	8,7308945E+001	1,201973084736384E-004
1,0020785E+004	5,2419806E+000	2,8069809E-001	5,2494907E+000	-3,0651524E+000	10/01/2024 19:07:02.8499	6,9910043E-001	1,7101610E+000	5,6582085E+001	1,6177951E-001	1,000000000000000E+000	10	1,0230634E-002	1,9488813E-003	0	2,820110331264842E-003	-2,9416069E-001	1,1959320E-003	2,1737471E+000	6,1365050E-001	6,1320889E-001	-2,3275727E-002	-2,5173776E+000	5,8608456E+000	5,8551893E+000	2,5742236E-001	1,9022214E-001	1,0186033E-002	1,9049467E-001	3,0651524E+000	1,6177963E+002	3,0211997E+003	3,0255281E+003	-8,6934845E+001	0,0000000E+000	0,0000000E+000	0,0000000E+000	8,6934845E+001	0,0000000E+000	0,0000000E+000	0,0000000E+000	-8,6934845E+001	0,0000000E+000	0,0000000E+000	0,0000000E+000	-3,0651524E+000	0,0000000E+000	0,0000000E+000	0,0000000E+000	3,0651524E+000	1,8674799E+001	8,6934845E+001	1,794320825166456E-004
7,9609565E+003	5,2629294E+000	3,2862946E-001	5,2731795E+000	-3,5730419E+000	10/01/2024 19:07:03.1069	6,9910395E-001	1,7041159E+000	6,0834278E+001	2,3627418E-001	1,000000000000000E+000	10	1,0614784E-002	2,0129760E-003	0	2,939059742320238E-003	-3,0088103E-001	1,2300313E-003	1,5778130E+000	6,1105114E-001	6,1081946E-001	-1,6825018E-002	-3,0386600E+000	5,8820190E+000	5,8737488E+000	3,1180444E-001	1,8927029E-001	1,1818474E-002	1,8963891E-001	3,5730419E+000	2,3627431E+002	3,7838794E+003	3,7912490E+003	-8,6426956E+001	0,0000000E+000	0,0000000E+000	0,0000000E+000	8,6426956E+001	0,0000000E+000	0,0000000E+000	0,0000000E+000	-8,6426956E+001	0,0000000E+000	0,0000000E+000	0,0000000E+000	-3,5730419E+000	0,0000000E+000	0,0000000E+000	0,0000000E+000	3,5730419E+000	1,6014782E+001	8,6426956E+001	1,189494110553965E-004
6,3186606E+003	5,2858481E+000	4,0510038E-001	5,3013487E+000	-4,3825054E+000	10/01/2024 19:07:03.3640	6,9910479E-001	1,6964363E+000	6,2177383E+001	3,6306551E-001	1,000000000000000E+000	10	1,0869624E-002	2,0503507E-003	0	3,055837357095831E-003	-3,0735317E-001	1,2700165E-003	6,1917543E-001	6,1941433E-001	6,1937815E-001	-6,6936635E-003	-3,8597138E+000	5,9186506E+000	5,9052262E+000	3,9840671E-001	1,8807971E-001	1,4414179E-002	1,8863125E-001	4,3825054E+000	3,6306567E+002	4,7373672E+003	4,7512593E+003	-8,5617493E+001	0,0000000E+000	0,0000000E+000	0,0000000E+000	8,5617493E+001	0,0000000E+000	0,0000000E+000	0,0000000E+000	-8,5617493E+001	0,0000000E+000	0,0000000E+000	0,0000000E+000	-4,3825054E+000	0,0000000E+000	0,0000000E+000	0,0000000E+000	4,3825054E+000	1,3048243E+001	8,5617493E+001	1,167776147755926E-004
5,0196709E+003	5,3232179E+000	4,9746457E-001	5,3464117E+000	-5,3388906E+000	10/01/2024 19:07:03.7439	6,9909561E-001	1,6879656E+000	6,3735699E+001	5,5180073E-001	1,000000000000000E+000	10	1,0056868E-002	1,8810501E-003	0	3,232517754757525E-003	-3,1789190E-001	1,1618990E-003	4,7755572E-001	6,1768633E-001	6,1766487E-001	-5,1483065E-003	-4,7372317E+000	5,9612465E+000	5,9408827E+000	4,9231625E-001	1,8622991E-001	1,7403530E-002	1,8704134E-001	5,3388906E+000	5,5180066E+002	5,9046523E+003	5,9303799E+003	-8,4661110E+001	0,0000000E+000	0,0000000E+000	0,0000000E+000	8,4661110E+001	0,0000000E+000	0,0000000E+000	0,0000000E+000	-8,4661110E+001	0,0000000E+000	0,0000000E+000	0,0000000E+000	-5,3388906E+000	0,0000000E+000	0,0000000E+000	0,0000000E+000	5,3388906E+000	1,0700698E+001	8,4661110E+001	1,766803976616937E-004
3,9915056E+003	5,3691115E+000	6,0467285E-001	5,4030538E+000	-6,4256129E+000	10/01/2024 19:07:04.0452	6,9912678E-001	1,6859506E+000	6,5942123E+001	8,2589585E-001	1,000000000000000E+000	10	1,0167859E-002	1,8818727E-003	0	3,368590715484606E-003	-3,2673144E-001	1,1600608E-003	-3,1827059E-001	6,1643958E-001	6,1643004E-001	3,4242240E-003	-5,8010230E+000	6,0163517E+000	5,9855413E+000	6,0809708E-001	1,8391784E-001	2,0712946E-002	1,8508051E-001	6,4256129E+000	8,2589587E+002	7,3334316E+003	7,3797915E+003	-8,3574387E+001	0,0000000E+000	0,0000000E+000	0,0000000E+000	8,3574387E+001	0,0000000E+000	0,0000000E+000	0,0000000E+000	-8,3574387E+001	0,0000000E+000	0,0000000E+000	0,0000000E+000	-6,4256129E+000	0,0000000E+000	0,0000000E+000	0,0000000E+000	6,4256129E+000	8,8793659E+000	8,3574387E+001	1,360729607270818E-004
3,1680613E+003	5,4052110E+000	7,1472251E-001	5,4522595E+000	-7,5324335E+000	10/01/2024 19:07:04.4178	6,9915289E-001	1,6802077E+000	7,0289284E+001	1,2078444E+000	1,000000000000000E+000	10	1,0201139E-002	1,8709931E-003	0	3,539818724668378E-003	-3,3557096E-001	1,1651700E-003	-6,6155845E-001	6,2275487E-001	6,2271339E-001	7,1904003E-003	-6,8292985E+000	6,0709991E+000	6,0279245E+000	7,2191292E-001	1,8182752E-001	2,4042767E-002	1,8341020E-001	7,5324335E+000	1,2078442E+003	9,1345293E+003	9,2140391E+003	-8,2467567E+001	0,0000000E+000	0,0000000E+000	0,0000000E+000	8,2467567E+001	0,0000000E+000	0,0000000E+000	0,0000000E+000	-8,2467567E+001	0,0000000E+000	0,0000000E+000	0,0000000E+000	-7,5324335E+000	0,0000000E+000	0,0000000E+000	0,0000000E+000	7,5324335E+000	7,5626707E+000	8,2467567E+001	1,712280091837716E-004
2,5158047E+003	5,4675922E+000	8,7707686E-001	5,5374932E+000	-9,1133881E+000	10/01/2024 19:07:04.8672	6,9915271E-001	1,6730843E+000	7,2128281E+001	1,8094828E+000	1,000000000000000E+000	10	1,0245708E-002	1,8502430E-003	0	3,745379726463030E-003	-3,4700701E-001	1,1463235E-003	-1,6269784E+000	6,1955297E-001	6,1930323E-001	1,7590541E-002	-8,3616085E+000	6,1522942E+000	6,0868955E+000	8,9466739E-001	1,7830755E-001	2,8602976E-002	1,8058713E-001	9,1133881E+000	1,8094829E+003	1,1280101E+004	1,1424312E+004	-8,0886612E+001	0,0000000E+000	0,0000000E+000	0,0000000E+000	8,0886612E+001	0,0000000E+000	0,0000000E+000	0,0000000E+000	-8,0886612E+001	0,0000000E+000	0,0000000E+000	0,0000000E+000	-9,1133881E+000	0,0000000E+000	0,0000000E+000	0,0000000E+000	9,1133881E+000	6,2338805E+000	8,0886612E+001	2,055610017946520E-004
